Time [s],Packet ID,MOSI,MISO
0.020829250000000,0,0x26,
0.020988166666667,1,0x3C,
0.023089083333333,2,0x26,
0.023248000000000,3,0x3C,
0.024519166666667,4,0x0C,
0.026884916666667,5,0x3A,
0.026990833333333,5,0x3C,
0.028173833333333,6,0x3A,
0.028527000000000,7,0x2D,
0.052286833333333,8,0x26,
0.052445916666667,9,0x3C,
0.053717916666667,10,0x0C,
0.055978750000000,11,0x3E,
0.056084750000000,11,0x38,
0.057268000000000,12,0x3A,
0.057621250000000,13,0x2D,
0.059793333333333,14,0x26,
0.059952250000000,15,0x3C,
0.061223583333333,16,0x2C,
0.063801583333333,17,0x38,
0.063907500000000,17,0x1C,
0.065090583333333,18,0x3A,
0.065443666666667,19,0x2D,
0.067721583333333,20,0x26,
0.067880500000000,21,0x3C,
0.069152000000000,22,0x2C,
0.071730333333333,23,0x3E,
0.071836250000000,23,0x04,
0.073019500000000,24,0x3A,
0.073372750000000,25,0x2D,
0.075650750000000,26,0x26,
0.075809666666667,27,0x3C,
0.077081083333333,28,0x2C,
0.079659000000000,29,0x3E,
0.079764916666667,29,0x04,
0.080947916666667,30,0x3A,
0.081301000000000,31,0x2D,
0.083578666666667,32,0x26,
0.083737583333333,33,0x3C,
0.085008916666667,34,0x2C,
0.087904583333333,35,0x30,
0.088010500000000,35,0x00,
0.089193583333333,36,0x3A,
0.089546750000000,37,0x2D,
0.091824750000000,38,0x26,
0.091983666666667,39,0x3C,
0.093255250000000,40,0x2C,
0.095939166666667,41,0x3C,
0.096045083333333,41,0x00,
0.097228166666667,42,0x3A,
0.097581250000000,43,0x2D,
0.099858916666667,44,0x26,
0.100017833333333,45,0x3C,
0.101289083333333,46,0x2C,
0.104078666666667,47,0x26,
0.104184583333333,47,0x04,
0.105367500000000,48,0x3A,
0.105720666666667,49,0x2D,
0.107998250000000,50,0x26,
0.108157250000000,51,0x3C,
0.109428583333333,52,0x2C,
0.112006583333333,53,0x34,
0.112112583333333,53,0x2C,
0.113295666666667,54,0x3A,
0.113648833333333,55,0x2D,
0.115926416666667,56,0x26,
0.116085333333333,57,0x3C,
0.117356416666667,58,0x2C,
0.119934000000000,59,0x2A,
0.120039916666667,59,0x1C,
0.121222833333333,60,0x3A,
0.121575916666667,61,0x2D,
0.123853166666667,62,0x26,
0.124012083333333,63,0x3C,
0.125283166666667,64,0x2C,
0.128178500000000,65,0x30,
0.128284416666667,65,0x00,
0.129467333333333,66,0x3A,
0.129820500000000,67,0x2D,
0.132098000000000,68,0x26,
0.132257000000000,69,0x3C,
0.133528250000000,70,0x2C,
0.136423500000000,71,0x22,
0.136529500000000,71,0x00,
0.137712250000000,72,0x3A,
0.138065333333333,73,0x2D,
0.140342583333333,74,0x26,
0.140501500000000,75,0x3C,
0.141772500000000,76,0x2C,
0.144349750000000,77,0x2A,
0.144455666666667,77,0x1C,
0.145638416666667,78,0x3A,
0.145991500000000,79,0x2D,
0.148268750000000,80,0x26,
0.148427666666667,81,0x3C,
0.149698833333333,82,0x2C,
0.152700333333333,83,0x20,
0.152806250000000,83,0x04,
0.153989166666667,84,0x3A,
0.154342250000000,85,0x2D,
0.156619500000000,86,0x26,
0.156778416666667,87,0x3C,
0.158049500000000,88,0x2C,
0.160626833333333,89,0x3E,
0.160732750000000,89,0x04,
0.161915500000000,90,0x3A,
0.162268583333333,91,0x2D,
0.164545666666667,92,0x26,
0.164704583333333,93,0x3C,
0.165975583333333,94,0x2C,
0.168553083333333,95,0x3E,
0.168659000000000,95,0x04,
0.169841916666667,96,0x3A,
0.170195000000000,97,0x2D,
0.172472500000000,98,0x26,
0.172631416666667,99,0x3C,
0.173902500000000,100,0x2C,
0.176479916666667,101,0x3E,
0.176585833333333,101,0x04,
0.177768583333333,102,0x3A,
0.178121666666667,103,0x2D,
0.180398750000000,104,0x26,
0.180557666666667,105,0x3C,
0.181828666666667,106,0x2C,
0.184088166666667,107,0x37,
0.184194083333333,107,0x38,
0.185376750000000,108,0x3A,
0.185729833333333,109,0x2D,
0.187724583333333,110,0x26,
0.187883500000000,111,0x3C,
0.189154666666667,112,0x0C,
0.191838250000000,113,0x20,
0.191944166666667,113,0x38,
0.193127000000000,114,0x3A,
0.193480166666667,115,0x2D,
0.197787583333333,116,0x26,
0.197946500000000,117,0x3C,
0.199217583333333,118,0x0C,
0.201689000000000,119,0x2A,
0.201794916666667,119,0x38,
0.202977666666667,120,0x3A,
0.203330666666667,121,0x2D,
0.205219416666667,122,0x26,
0.205378333333333,123,0x3C,
0.206649416666667,124,0x2C,
0.208909083333333,125,0x3D,
0.209015000000000,125,0x38,
0.210197916666667,126,0x3A,
0.210551000000000,127,0x2D,
0.212545916666667,128,0x26,
0.212704833333333,129,0x3C,
0.213975833333333,130,0x2C,
0.216235333333333,131,0x2F,
0.216341250000000,131,0x38,
0.217524000000000,132,0x3A,
0.217877000000000,133,0x2D,
0.219871666666667,134,0x26,
0.220030500000000,135,0x3C,
0.221301416666667,136,0x2C,
0.223454833333333,137,0x3F,
0.223560750000000,137,0x3C,
0.224743416666667,138,0x3A,
0.225096416666667,139,0x2D,
0.227091166666667,140,0x26,
0.227250083333333,141,0x3C,
0.228521083333333,142,0x2C,
0.230992666666667,143,0x2D,
0.231098583333333,143,0x30,
0.232281416666667,144,0x3A,
0.232634500000000,145,0x2D,
0.234629250000000,146,0x26,
0.234788166666667,147,0x3C,
0.236059083333333,148,0x2C,
0.238742250000000,149,0x23,
0.238848166666667,149,0x08,
0.240030833333333,150,0x3A,
0.240383916666667,151,0x2D,
0.242378500000000,152,0x26,
0.242537333333333,153,0x3C,
0.243808250000000,154,0x2C,
0.246279583333333,155,0x2B,
0.246385500000000,155,0x28,
0.247568250000000,156,0x3A,
0.247921333333333,157,0x2D,
0.249916250000000,158,0x26,
0.250075166666667,159,0x3C,
0.251346250000000,160,0x2C,
0.253817666666667,161,0x27,
0.253923583333333,161,0x18,
0.255106333333333,162,0x3A,
0.255459333333333,163,0x2D,
0.257453916666667,164,0x26,
0.257612833333333,165,0x3C,
0.258883750000000,166,0x2C,
0.261143083333333,167,0x2F,
0.261249000000000,167,0x38,
0.262431666666667,168,0x3A,
0.262784666666667,169,0x2D,
0.264779166666667,170,0x26,
0.264938083333333,171,0x3C,
0.266209000000000,172,0x0C,
0.268892333333333,173,0x20,
0.268998250000000,173,0x38,
0.270181083333333,174,0x3A,
0.270534166666667,175,0x2D,
0.272105333333333,176,0x03,
0.275935833333333,177,0x26,
0.276094750000000,178,0x3C,
0.277365666666667,179,0x0C,
0.279836833333333,180,0x2A,
0.279942666666667,180,0x38,
0.281125333333333,181,0x3A,
0.281478333333333,182,0x2D,
0.283367000000000,183,0x26,
0.283525833333333,184,0x3C,
0.284796750000000,185,0x2C,
0.287162083333333,186,0x2D,
0.287268000000000,186,0x3C,
0.288450750000000,187,0x3A,
0.288803833333333,188,0x2D,
0.290798666666667,189,0x26,
0.290957583333333,190,0x3C,
0.292228583333333,191,0x2C,
0.294487916666667,192,0x2F,
0.294593833333333,192,0x38,
0.295776500000000,193,0x3A,
0.296129500000000,194,0x2D,
0.298124000000000,195,0x26,
0.298282916666667,196,0x3C,
0.299553750000000,197,0x2C,
0.301707000000000,198,0x3F,
0.301812916666667,198,0x3C,
0.302995416666667,199,0x3A,
0.303348500000000,200,0x2D,
0.305342916666667,201,0x26,
0.305501833333333,202,0x3C,
0.306772750000000,203,0x2C,
0.309244000000000,204,0x2D,
0.309349916666667,204,0x30,
0.310532750000000,205,0x3A,
0.310885833333333,206,0x2D,
0.312880416666667,207,0x26,
0.313039333333333,208,0x3C,
0.314310166666667,209,0x2C,
0.316993083333333,210,0x23,
0.317099000000000,210,0x08,
0.318281666666667,211,0x3A,
0.318634666666667,212,0x2D,
0.320629166666667,213,0x26,
0.320788000000000,214,0x3C,
0.322058833333333,215,0x2C,
0.324529833333333,216,0x2B,
0.324635750000000,216,0x28,
0.325818416666667,217,0x3A,
0.326171500000000,218,0x2D,
0.328166250000000,219,0x26,
0.328325083333333,220,0x3C,
0.329596166666667,221,0x2C,
0.332067416666667,222,0x27,
0.332173333333333,222,0x18,
0.333356000000000,223,0x3A,
0.333709000000000,224,0x2D,
0.335703500000000,225,0x26,
0.335862333333333,226,0x3C,
0.337133166666667,227,0x2C,
0.339392333333333,228,0x2F,
0.339498250000000,228,0x38,
0.340680750000000,229,0x3A,
0.341033750000000,230,0x2D,
0.343028166666667,231,0x26,
0.343187000000000,232,0x3C,
0.344457833333333,233,0x0C,
0.347140833333333,234,0x20,
0.347246750000000,234,0x38,
0.348429500000000,235,0x3A,
0.348782583333333,236,0x2D,
0.350353666666667,237,0x03,
0.354184083333333,238,0x26,
0.354342916666667,239,0x3C,
0.355613750000000,240,0x0C,
0.358084750000000,241,0x2A,
0.358190666666667,241,0x38,
0.359373250000000,242,0x3A,
0.359726250000000,243,0x2D,
0.361614666666667,244,0x26,
0.361773583333333,245,0x3C,
0.363044250000000,246,0x2C,
0.365833083333333,247,0x30,
0.365938916666667,247,0x24,
0.367121666666667,248,0x3A,
0.367474750000000,249,0x2D,
0.369469416666667,250,0x26,
0.369628333333333,251,0x3C,
0.370899250000000,252,0x2C,
0.373264416666667,253,0x2D,
0.373370333333333,253,0x3C,
0.374552916666667,254,0x3A,
0.374905916666667,255,0x2D,
0.376900333333333,256,0x26,
0.377059166666667,257,0x3C,
0.378329916666667,258,0x2C,
0.380694916666667,259,0x3F,
0.380800750000000,259,0x14,
0.381983250000000,260,0x3A,
0.382336250000000,261,0x2D,
0.384330583333333,262,0x26,
0.384489500000000,263,0x3C,
0.385760250000000,264,0x2C,
0.388443250000000,265,0x28,
0.388549166666667,265,0x28,
0.389731916666667,266,0x3A,
0.390084916666667,267,0x2D,
0.392079500000000,268,0x26,
0.392238333333333,269,0x3C,
0.393509166666667,270,0x2C,
0.396297833333333,271,0x2A,
0.396403666666667,271,0x04,
0.397586250000000,272,0x3A,
0.397939250000000,273,0x2D,
0.399933583333333,274,0x26,
0.400092416666667,275,0x3C,
0.401363166666667,276,0x2C,
0.404151750000000,277,0x20,
0.404257666666667,277,0x1C,
0.405440250000000,278,0x3A,
0.405793333333333,279,0x2D,
0.407787916666667,280,0x26,
0.407946833333333,281,0x3C,
0.409217750000000,282,0x2C,
0.411688916666667,283,0x3E,
0.411794750000000,283,0x10,
0.412977333333333,284,0x3A,
0.413330333333333,285,0x2D,
0.415324666666667,286,0x26,
0.415483500000000,287,0x3C,
0.416754250000000,288,0x2C,
0.419225166666667,289,0x23,
0.419331000000000,289,0x38,
0.420513500000000,290,0x3A,
0.420866500000000,291,0x2D,
0.422860750000000,292,0x26,
0.423019583333333,293,0x3C,
0.424290416666667,294,0x0C,
0.426973333333333,295,0x20,
0.427079250000000,295,0x38,
0.428261916666667,296,0x3A,
0.428615000000000,297,0x2D,
0.430186000000000,298,0x03,
0.434016083333333,299,0x26,
0.434175000000000,300,0x3C,
0.435445750000000,301,0x0C,
0.437916500000000,302,0x2A,
0.438022416666667,302,0x38,
0.439204916666667,303,0x3A,
0.439557833333333,304,0x2D,
0.441446166666667,305,0x26,
0.441605000000000,306,0x3C,
0.442875666666667,307,0x2C,
0.445770250000000,308,0x20,
0.445876083333333,308,0x20,
0.447058750000000,309,0x3A,
0.447411833333333,310,0x2D,
0.449406416666667,311,0x26,
0.449565250000000,312,0x3C,
0.450836000000000,313,0x2C,
0.453412750000000,314,0x21,
0.453518666666667,314,0x3C,
0.454701166666667,315,0x3A,
0.455054166666667,316,0x2D,
0.457048416666667,317,0x26,
0.457207250000000,318,0x3C,
0.458477916666667,319,0x2C,
0.460842750000000,320,0x3F,
0.460948666666667,320,0x0C,
0.462131083333333,321,0x3A,
0.462484083333333,322,0x2D,
0.464478333333333,323,0x26,
0.464637250000000,324,0x3C,
0.465908000000000,325,0x2C,
0.468802750000000,326,0x20,
0.468908666666667,326,0x10,
0.470091250000000,327,0x3A,
0.470444250000000,328,0x2D,
0.472438583333333,329,0x26,
0.472597416666667,330,0x3C,
0.473868166666667,331,0x2C,
0.476550750000000,332,0x34,
0.476656583333333,332,0x20,
0.477839083333333,333,0x3A,
0.478192083333333,334,0x2D,
0.480186250000000,335,0x26,
0.480345083333333,336,0x3C,
0.481615666666667,337,0x2C,
0.484404166666667,338,0x22,
0.484510083333333,338,0x0C,
0.485692666666667,339,0x3A,
0.486045750000000,340,0x2D,
0.488040250000000,341,0x26,
0.488199166666667,342,0x3C,
0.489470000000000,343,0x2C,
0.492258583333333,344,0x32,
0.492364416666667,344,0x04,
0.493546916666667,345,0x3A,
0.493899916666667,346,0x2D,
0.495894166666667,347,0x26,
0.496053000000000,348,0x3C,
0.497323666666667,349,0x2C,
0.499900166666667,350,0x21,
0.500006083333333,350,0x3C,
0.501188416666667,351,0x3A,
0.501541416666667,352,0x2D,
0.503535666666667,353,0x26,
0.503694500000000,354,0x3C,
0.504965250000000,355,0x0C,
0.507648000000000,356,0x20,
0.507753916666667,356,0x38,
0.508936500000000,357,0x3A,
0.509289500000000,358,0x2D,
0.510860250000000,359,0x03,
0.514690000000000,360,0x26,
0.514848833333333,361,0x3C,
0.516119583333333,362,0x0C,
0.518590250000000,363,0x2A,
0.518696166666667,363,0x38,
0.519878583333333,364,0x3A,
0.520231500000000,365,0x2D,
0.522119833333333,366,0x26,
0.522278666666667,367,0x3C,
0.523549416666667,368,0x2C,
0.526232166666667,369,0x24,
0.526338083333333,369,0x28,
0.527520666666667,370,0x3A,
0.527873750000000,371,0x2D,
0.529868166666667,372,0x26,
0.530027000000000,373,0x3C,
0.531297666666667,374,0x2C,
0.533662500000000,375,0x27,
0.533768416666667,375,0x3C,
0.534950833333333,376,0x3A,
0.535303833333333,377,0x2D,
0.537298000000000,378,0x26,
0.537456833333333,379,0x3C,
0.538727500000000,380,0x2C,
0.541092250000000,381,0x3E,
0.541198083333333,381,0x34,
0.542380583333333,382,0x3A,
0.542733583333333,383,0x2D,
0.544727916666667,384,0x26,
0.544886750000000,385,0x3C,
0.546157583333333,386,0x2C,
0.549052166666667,387,0x22,
0.549158083333333,387,0x00,
0.550340583333333,388,0x3A,
0.550693500000000,389,0x2D,
0.552687750000000,390,0x26,
0.552846583333333,391,0x3C,
0.554117166666667,392,0x2C,
0.556693666666667,393,0x23,
0.556799583333333,393,0x34,
0.557981916666667,394,0x3A,
0.558334916666667,395,0x2D,
0.560329000000000,396,0x26,
0.560487833333333,397,0x3C,
0.561758500000000,398,0x2C,
0.564652916666667,399,0x22,
0.564758833333333,399,0x00,
0.565941416666667,400,0x3A,
0.566294416666667,401,0x2D,
0.568288833333333,402,0x26,
0.568447666666667,403,0x3C,
0.569718333333333,404,0x2C,
0.572400833333333,405,0x21,
0.572506750000000,405,0x30,
0.573689166666667,406,0x3A,
0.574042083333333,407,0x2D,
0.576036166666667,408,0x26,
0.576195083333333,409,0x3C,
0.577465666666667,410,0x2C,
0.579724416666667,411,0x37,
0.579830333333333,411,0x38,
0.581012666666667,412,0x3A,
0.581365666666667,413,0x2D,
0.583359833333333,414,0x26,
0.583518750000000,415,0x3C,
0.584789500000000,416,0x0C,
0.587472250000000,417,0x20,
0.587578166666667,417,0x38,
0.588760666666667,418,0x3A,
0.589113583333333,419,0x2D,
0.590684250000000,420,0x03,
0.594514000000000,421,0x26,
0.594672833333333,422,0x3C,
0.595943500000000,423,0x0C,
0.598414083333333,424,0x2A,
0.598519916666667,424,0x38,
0.599702250000000,425,0x3A,
0.600055250000000,426,0x2D,
0.601943500000000,427,0x26,
0.602102333333333,428,0x3C,
0.603373000000000,429,0x2C,
0.605843833333333,430,0x2B,
0.605949750000000,430,0x18,
0.607132333333333,431,0x3A,
0.607485250000000,432,0x2D,
0.609479500000000,433,0x26,
0.609638333333333,434,0x3C,
0.610909000000000,435,0x2C,
0.613485416666667,436,0x21,
0.613591333333333,436,0x3C,
0.614773666666667,437,0x3A,
0.615126583333333,438,0x2D,
0.617120750000000,439,0x26,
0.617279583333333,440,0x3C,
0.618550083333333,441,0x2C,
0.620702916666667,442,0x3F,
0.620808833333333,442,0x3C,
0.621991166666667,443,0x3A,
0.622344166666667,444,0x2D,
0.624338416666667,445,0x26,
0.624497333333333,446,0x3C,
0.625768083333333,447,0x2C,
0.628556583333333,448,0x2C,
0.628662500000000,448,0x04,
0.629844833333333,449,0x3A,
0.630197833333333,450,0x2D,
0.632191916666667,451,0x26,
0.632350750000000,452,0x3C,
0.633621333333333,453,0x2C,
0.636091833333333,454,0x26,
0.636197666666667,454,0x38,
0.637380000000000,455,0x3A,
0.637733000000000,456,0x2D,
0.639727000000000,457,0x26,
0.639885833333333,458,0x3C,
0.641156416666667,459,0x2C,
0.643733000000000,460,0x27,
0.643838916666667,460,0x0C,
0.645021416666667,461,0x3A,
0.645374416666667,462,0x2D,
0.647368666666667,463,0x26,
0.647527583333333,464,0x3C,
0.648798166666667,465,0x2C,
0.651692333333333,466,0x20,
0.651798166666667,466,0x08,
0.652980583333333,467,0x3A,
0.653333500000000,468,0x2D,
0.655327500000000,469,0x26,
0.655486333333333,470,0x3C,
0.656756916666667,471,0x2C,
0.659227333333333,472,0x25,
0.659333250000000,472,0x38,
0.660515583333333,473,0x3A,
0.660868583333333,474,0x2D,
0.662862750000000,475,0x26,
0.663021583333333,476,0x3C,
0.664292250000000,477,0x0C,
0.666974916666667,478,0x20,
0.667080833333333,478,0x38,
0.668263250000000,479,0x3A,
0.668616250000000,480,0x2D,
0.670186833333333,481,0x03,
0.674016333333333,482,0x26,
0.674175166666667,483,0x3C,
0.675445750000000,484,0x0C,
0.677916166666667,485,0x2A,
0.678022083333333,485,0x38,
0.679204333333333,486,0x3A,
0.679557333333333,487,0x2D,
0.681445500000000,488,0x26,
0.681604333333333,489,0x3C,
0.682875000000000,490,0x2C,
0.685557500000000,491,0x2C,
0.685663416666667,491,0x20,
0.686845916666667,492,0x3A,
0.687198916666667,493,0x2D,
0.689193000000000,494,0x26,
0.689351833333333,495,0x3C,
0.690622333333333,496,0x2C,
0.692987000000000,497,0x39,
0.693092833333333,497,0x3C,
0.694275166666667,498,0x3A,
0.694628083333333,499,0x2D,
0.696622083333333,500,0x26,
0.696780916666667,501,0x3C,
0.698051416666667,502,0x2C,
0.700627750000000,503,0x3E,
0.700733666666667,503,0x04,
0.701916000000000,504,0x3A,
0.702269000000000,505,0x2D,
0.704263166666667,506,0x26,
0.704422000000000,507,0x3C,
0.705692750000000,508,0x2C,
0.708375166666667,509,0x21,
0.708481000000000,509,0x18,
0.709663333333333,510,0x3A,
0.710016250000000,511,0x2D,
0.712010250000000,512,0x26,
0.712169083333333,513,0x3C,
0.713439583333333,514,0x2C,
0.716227583333333,515,0x22,
0.716333500000000,515,0x24,
0.717515750000000,516,0x3A,
0.717868666666667,517,0x2D,
0.719862583333333,518,0x26,
0.720021416666667,519,0x3C,
0.721292000000000,520,0x2C,
0.724080333333333,521,0x24,
0.724186250000000,521,0x0C,
0.725368750000000,522,0x3A,
0.725721750000000,523,0x2D,
0.727715916666667,524,0x26,
0.727874750000000,525,0x3C,
0.729145250000000,526,0x2C,
0.731615750000000,527,0x39,
0.731721583333333,527,0x18,
0.732903916666667,528,0x3A,
0.733256833333333,529,0x2D,
0.735250750000000,530,0x26,
0.735409666666667,531,0x3C,
0.736680083333333,532,0x2C,
0.739044500000000,533,0x2B,
0.739150416666667,533,0x3C,
0.740332750000000,534,0x3A,
0.740685666666667,535,0x2D,
0.742679750000000,536,0x26,
0.742838583333333,537,0x3C,
0.744109250000000,538,0x0C,
0.746791666666667,539,0x20,
0.746897500000000,539,0x38,
0.748079833333333,540,0x3A,
0.748432750000000,541,0x2D,
0.750003166666667,542,0x03,
0.753832166666667,543,0x26,
0.753991083333333,544,0x3C,
0.755261583333333,545,0x0C,
0.757731833333333,546,0x2A,
0.757837750000000,546,0x38,
0.759020000000000,547,0x3A,
0.759372916666667,548,0x2D,
0.761261083333333,549,0x26,
0.761419916666667,550,0x3C,
0.762690500000000,551,0x2C,
0.764843583333333,552,0x3F,
0.764949416666667,552,0x3C,
0.766131833333333,553,0x3A,
0.766484833333333,554,0x2D,
0.768478750000000,555,0x26,
0.768637583333333,556,0x3C,
0.769908083333333,557,0x2C,
0.772060833333333,558,0x3F,
0.772166750000000,558,0x3C,
0.773349000000000,559,0x3A,
0.773701916666667,560,0x2D,
0.775695750000000,561,0x26,
0.775854583333333,562,0x3C,
0.777125000000000,563,0x2C,
0.779277750000000,564,0x3F,
0.779383583333333,564,0x3C,
0.780565833333333,565,0x3A,
0.780918833333333,566,0x2D,
0.782912916666667,567,0x26,
0.783071750000000,568,0x3C,
0.784342416666667,569,0x2C,
0.786495333333333,570,0x3F,
0.786601166666667,570,0x3C,
0.787783416666667,571,0x3A,
0.788136333333333,572,0x2D,
0.790130250000000,573,0x26,
0.790289083333333,574,0x3C,
0.791559500000000,575,0x2C,
0.793712166666667,576,0x3F,
0.793818000000000,576,0x3C,
0.795000166666667,577,0x3A,
0.795353083333333,578,0x2D,
0.797346833333333,579,0x26,
0.797505666666667,580,0x3C,
0.798776166666667,581,0x2C,
0.800928916666667,582,0x3F,
0.801034750000000,582,0x3C,
0.802217166666667,583,0x3A,
0.802570083333333,584,0x2D,
0.804564166666667,585,0x26,
0.804723083333333,586,0x3C,
0.805993583333333,587,0x2C,
0.808146333333333,588,0x3F,
0.808252250000000,588,0x3C,
0.809434416666667,589,0x3A,
0.809787333333333,590,0x2D,
0.811781166666667,591,0x26,
0.811940000000000,592,0x3C,
0.813210416666667,593,0x2C,
0.815363083333333,594,0x3F,
0.815468916666667,594,0x3C,
0.816651083333333,595,0x3A,
0.817003916666667,596,0x2D,
0.818997750000000,597,0x26,
0.819156583333333,598,0x3C,
0.820427083333333,599,0x0C,
0.823109333333333,600,0x20,
0.823215250000000,600,0x38,
0.824397666666667,601,0x3A,
0.824750583333333,602,0x2D,
0.826321166666667,603,0x03,
0.830150083333333,604,0x26,
0.830308916666667,605,0x3C,
0.831579416666667,606,0x0C,
0.834049750000000,607,0x2A,
0.834155583333333,607,0x38,
0.835337750000000,608,0x3A,
0.835690666666667,609,0x2D,
0.837578583333333,610,0x26,
0.837737416666667,611,0x3C,
0.839007916666667,612,0x2C,
0.841160750000000,613,0x3F,
0.841266583333333,613,0x3C,
0.842448916666667,614,0x3A,
0.842801916666667,615,0x2D,
